===Clang Compiler Detected===
--->sysroot is /opt/launchpad/gcc-arm-none-eabi-7-2018-q2-update/bin/../arm-none-eabi
--->multi-dir is thumb/v7e-m/fpv4-sp/hard
--->builtins is /opt/launchpad/gcc-arm-none-eabi-7-2018-q2-update/bin/../lib/gcc/arm-none-eabi/7.3.1/thumb/v7e-m/fpv4-sp/hard/libgcc.a
--->compiler specific cflags is --target=arm-none-eabi --sysroot=/opt/launchpad/gcc-arm-none-eabi-7-2018-q2-update/bin/../arm-none-eabi
--->cflags is -g -O3 -ffunction-sections -std=gnu99 -Wall -flto -I. -I../CMSIS -I../HAL -I../common -DARM_MATH_CM4 -DUSE_HAL_DRIVER -DSTM32F303x8 -D'HSE_VALUE=((uint32_t)8000000)' -mcpu=cortex-m4 -mfloat-abi=hard -mfpu=fpv4-sp-d16 -mlittle-endian -mthumb
openocd -d3 -f openocd_stlink.cfg -c "program main.elf verify reset exit"
Open On-Chip Debugger 0.10.0+dev-01517-g7b641d3d4-dirty (2020-12-05-12:39)
Licensed under GNU GPL v2
For bug reports, read
	http://openocd.org/doc/doxygen/bugs.html
User : 13 1 options.c:63 configuration_output_handler(): debug_level: 3
User : 14 1 options.c:63 configuration_output_handler(): 
Debug: 15 1 options.c:244 add_default_dirs(): bindir=/usr/local/bin
Debug: 16 1 options.c:245 add_default_dirs(): pkgdatadir=/usr/local/share/openocd
Debug: 17 1 options.c:246 add_default_dirs(): exepath=/usr/local/bin
Debug: 18 1 options.c:247 add_default_dirs(): bin2data=../share/openocd
Debug: 19 1 configuration.c:42 add_script_search_dir(): adding /home/ericb/.config/openocd
Debug: 20 1 configuration.c:42 add_script_search_dir(): adding /home/ericb/.openocd
Debug: 21 1 configuration.c:42 add_script_search_dir(): adding /usr/local/bin/../share/openocd/site
Debug: 22 1 configuration.c:42 add_script_search_dir(): adding /usr/local/bin/../share/openocd/scripts
Debug: 23 1 configuration.c:97 find_file(): found openocd_stlink.cfg
Debug: 24 1 configuration.c:97 find_file(): found /usr/local/bin/../share/openocd/scripts/interface/stlink.cfg
Debug: 25 1 command.c:146 script_debug(): command - adapter driver hla
Debug: 27 1 command.c:146 script_debug(): command - hla_layout stlink
Debug: 29 1 hla_interface.c:242 hl_interface_handle_layout_command(): hl_interface_handle_layout_command
Debug: 30 1 command.c:146 script_debug(): command - hla_device_desc ST-LINK
Debug: 32 1 hla_interface.c:216 hl_interface_handle_device_desc_command(): hl_interface_handle_device_desc_command
Debug: 33 1 command.c:146 script_debug(): command - hla_vid_pid 0x0483 0x3744 0x0483 0x3748 0x0483 0x374b 0x0483 0x374d 0x0483 0x374e 0x0483 0x374f 0x0483 0x3752 0x0483 0x3753
Debug: 35 1 command.c:146 script_debug(): command - transport select hla_swd
Debug: 36 1 hla_transport.c:205 hl_swd_transport_select(): hl_swd_transport_select
Debug: 37 1 configuration.c:97 find_file(): found /usr/local/bin/../share/openocd/scripts/target/stm32f3x.cfg
Debug: 38 1 configuration.c:97 find_file(): found /usr/local/bin/../share/openocd/scripts/target/swj-dp.tcl
Debug: 39 1 command.c:146 script_debug(): command - transport select
Debug: 40 1 configuration.c:97 find_file(): found /usr/local/bin/../share/openocd/scripts/mem_helper.tcl
Debug: 41 1 command.c:146 script_debug(): command - add_usage_text mrw address
Debug: 43 1 command.c:1115 help_add_command(): added 'mrw' help text
Debug: 44 1 command.c:146 script_debug(): command - add_help_text mrw Returns value of word in memory.
Debug: 46 1 command.c:1128 help_add_command(): added 'mrw' help text
Debug: 47 1 command.c:146 script_debug(): command - add_usage_text mrh address
Debug: 49 1 command.c:1115 help_add_command(): added 'mrh' help text
Debug: 50 1 command.c:146 script_debug(): command - add_help_text mrh Returns value of halfword in memory.
Debug: 52 1 command.c:1128 help_add_command(): added 'mrh' help text
Debug: 53 1 command.c:146 script_debug(): command - add_usage_text mrb address
Debug: 55 1 command.c:1115 help_add_command(): added 'mrb' help text
Debug: 56 1 command.c:146 script_debug(): command - add_help_text mrb Returns value of byte in memory.
Debug: 58 1 command.c:1128 help_add_command(): added 'mrb' help text
Debug: 59 1 command.c:146 script_debug(): command - add_usage_text mmw address setbits clearbits
Debug: 61 1 command.c:1115 help_add_command(): added 'mmw' help text
Debug: 62 1 command.c:146 script_debug(): command - add_help_text mmw Modify word in memory. new_val = (old_val & ~clearbits) | setbits;
Debug: 64 1 command.c:1128 help_add_command(): added 'mmw' help text
Debug: 65 1 command.c:146 script_debug(): command - adapter speed 1000
Debug: 67 1 core.c:1822 jtag_config_khz(): handle jtag khz
Debug: 68 1 core.c:1785 adapter_khz_to_speed(): convert khz to interface specific speed value
Debug: 69 1 core.c:1785 adapter_khz_to_speed(): convert khz to interface specific speed value
Debug: 70 1 command.c:146 script_debug(): command - adapter srst delay 100
Debug: 72 1 command.c:146 script_debug(): command - transport select
Debug: 73 1 command.c:146 script_debug(): command - transport select
Debug: 74 1 command.c:146 script_debug(): command - transport select
Debug: 75 1 command.c:146 script_debug(): command - transport select
Debug: 76 1 command.c:146 script_debug(): command - swd newdap stm32f3x cpu -irlen 4 -ircapture 0x1 -irmask 0xf -expected-id 0x2ba01477
Debug: 77 1 hla_tcl.c:110 jim_hl_newtap_cmd(): Creating New Tap, Chip: stm32f3x, Tap: cpu, Dotted: stm32f3x.cpu, 8 params
Debug: 78 1 hla_tcl.c:121 jim_hl_newtap_cmd(): Processing option: -irlen
Debug: 79 1 hla_tcl.c:121 jim_hl_newtap_cmd(): Processing option: -ircapture
Debug: 80 1 hla_tcl.c:121 jim_hl_newtap_cmd(): Processing option: -irmask
Debug: 81 1 hla_tcl.c:121 jim_hl_newtap_cmd(): Processing option: -expected-id
Debug: 82 1 core.c:1484 jtag_tap_init(): Created Tap: stm32f3x.cpu @ abs position 0, irlen 0, capture: 0x0 mask: 0x0
Debug: 83 1 command.c:146 script_debug(): command - dap create stm32f3x.dap -chain-position stm32f3x.cpu
Debug: 84 1 command.c:146 script_debug(): command - transport select
Debug: 85 1 command.c:146 script_debug(): command - target create stm32f3x.cpu cortex_m -endian little -dap stm32f3x.dap
Info : 86 1 target.c:5636 target_create(): The selected transport took over low-level target control. The results might differ compared to plain JTAG/SWD
Debug: 87 1 hla_target.c:203 adapter_target_create(): adapter_target_create
Debug: 88 1 hla_target.c:173 adapter_init_arch_info(): adapter_init_arch_info
Debug: 89 1 command.c:375 register_command(): command 'rtt' is already registered in '<global>' context
Debug: 90 1 command.c:146 script_debug(): command - stm32f3x.cpu configure -work-area-phys 0x20000000 -work-area-size 0x4000 -work-area-backup 0
Debug: 91 1 target.c:2141 target_free_all_working_areas_restore(): freeing all working areas
Debug: 92 1 target.c:2141 target_free_all_working_areas_restore(): freeing all working areas
Debug: 93 1 target.c:2141 target_free_all_working_areas_restore(): freeing all working areas
Debug: 94 1 command.c:146 script_debug(): command - flash bank stm32f3x.flash stm32f1x 0 0 0 0 stm32f3x.cpu
Debug: 96 1 tcl.c:1319 handle_flash_bank_command(): 'stm32f1x' driver usage field missing
Debug: 97 1 command.c:146 script_debug(): command - reset_config srst_nogate
Debug: 99 1 command.c:146 script_debug(): command - transport select
Debug: 100 1 command.c:146 script_debug(): command - stm32f3x.cpu configure -event examine-end  stm32f3x_default_examine_end 
Debug: 101 1 command.c:146 script_debug(): command - stm32f3x.cpu configure -event reset-start  stm32f3x_default_reset_start 
Debug: 102 1 command.c:146 script_debug(): command - stm32f3x.cpu configure -event reset-init  stm32f3x_default_reset_init 
Debug: 103 1 command.c:146 script_debug(): command - stm32f3x.cpu configure -event trace-config 
	# Set TRACE_IOEN; TRACE_MODE is set to async; when using sync
	# change this value accordingly to configure trace pins
	# assignment
	mmw 0xe0042004 0x00000020 0

Debug: 104 2 command.c:146 script_debug(): command - reset_config none
Debug: 106 2 command.c:146 script_debug(): command - init
Debug: 108 2 command.c:146 script_debug(): command - target init
Debug: 110 2 command.c:146 script_debug(): command - target names
Debug: 111 2 command.c:146 script_debug(): command - stm32f3x.cpu cget -event gdb-flash-erase-start
Debug: 112 2 command.c:146 script_debug(): command - stm32f3x.cpu configure -event gdb-flash-erase-start reset init
Debug: 113 2 command.c:146 script_debug(): command - stm32f3x.cpu cget -event gdb-flash-write-end
Debug: 114 2 command.c:146 script_debug(): command - stm32f3x.cpu configure -event gdb-flash-write-end reset halt
Debug: 115 2 command.c:146 script_debug(): command - stm32f3x.cpu cget -event gdb-attach
Debug: 116 2 command.c:146 script_debug(): command - stm32f3x.cpu configure -event gdb-attach halt 1000
Debug: 117 2 target.c:1608 handle_target_init_command(): Initializing targets...
Debug: 118 2 hla_target.c:193 adapter_init_target(): adapter_init_target
Debug: 119 2 semihosting_common.c:97 semihosting_common_init():  
Debug: 120 2 hla_interface.c:109 hl_interface_init(): hl_interface_init
Debug: 121 2 hla_layout.c:95 hl_layout_init(): hl_layout_init
Debug: 122 2 core.c:1785 adapter_khz_to_speed(): convert khz to interface specific speed value
Debug: 123 2 core.c:1789 adapter_khz_to_speed(): have interface set up
Debug: 124 2 core.c:1785 adapter_khz_to_speed(): convert khz to interface specific speed value
Debug: 125 2 core.c:1789 adapter_khz_to_speed(): have interface set up
Info : 126 2 core.c:1565 adapter_init(): clock speed 1000 kHz
Debug: 127 2 openocd.c:143 handle_init_command(): Debug Adapter init complete
Debug: 128 2 command.c:146 script_debug(): command - transport init
Debug: 130 2 transport.c:229 handle_transport_init(): handle_transport_init
Debug: 131 2 hla_transport.c:156 hl_transport_init(): hl_transport_init
Debug: 132 2 hla_transport.c:173 hl_transport_init(): current transport hla_swd
Debug: 133 2 hla_interface.c:42 hl_interface_open(): hl_interface_open
Debug: 134 2 hla_layout.c:40 hl_layout_open(): hl_layout_open
Debug: 135 2 stlink_usb.c:2819 stlink_usb_open(): stlink_usb_open
Debug: 136 2 stlink_usb.c:2831 stlink_usb_open(): transport: 4 vid: 0x0483 pid: 0x3744 serial: 
Debug: 137 2 stlink_usb.c:2831 stlink_usb_open(): transport: 4 vid: 0x0483 pid: 0x3748 serial: 
Debug: 138 2 stlink_usb.c:2831 stlink_usb_open(): transport: 4 vid: 0x0483 pid: 0x374b serial: 
Debug: 139 2 stlink_usb.c:2831 stlink_usb_open(): transport: 4 vid: 0x0483 pid: 0x374d serial: 
Debug: 140 2 stlink_usb.c:2831 stlink_usb_open(): transport: 4 vid: 0x0483 pid: 0x374e serial: 
Debug: 141 2 stlink_usb.c:2831 stlink_usb_open(): transport: 4 vid: 0x0483 pid: 0x374f serial: 
Debug: 142 2 stlink_usb.c:2831 stlink_usb_open(): transport: 4 vid: 0x0483 pid: 0x3752 serial: 
Debug: 143 2 stlink_usb.c:2831 stlink_usb_open(): transport: 4 vid: 0x0483 pid: 0x3753 serial: 
Info : 144 7 stlink_usb.c:1098 stlink_usb_version(): STLINK V2J25M14 (API v2) VID:PID 0483:374B
Debug: 145 7 stlink_usb.c:1323 stlink_usb_exit_mode(): MODE: 0x01
Info : 146 7 stlink_usb.c:1134 stlink_usb_check_voltage(): Target voltage: 3.253755
Debug: 147 7 stlink_usb.c:1391 stlink_usb_init_mode(): MODE: 0x01
Debug: 148 7 stlink_usb.c:2606 stlink_dump_speed_map(): Supported clock speeds are:
Debug: 149 7 stlink_usb.c:2609 stlink_dump_speed_map(): 4000 kHz
Debug: 150 7 stlink_usb.c:2609 stlink_dump_speed_map(): 1800 kHz
Debug: 151 7 stlink_usb.c:2609 stlink_dump_speed_map(): 1200 kHz
Debug: 152 7 stlink_usb.c:2609 stlink_dump_speed_map(): 950 kHz
Debug: 153 7 stlink_usb.c:2609 stlink_dump_speed_map(): 480 kHz
Debug: 154 7 stlink_usb.c:2609 stlink_dump_speed_map(): 240 kHz
Debug: 155 7 stlink_usb.c:2609 stlink_dump_speed_map(): 125 kHz
Debug: 156 7 stlink_usb.c:2609 stlink_dump_speed_map(): 100 kHz
Debug: 157 7 stlink_usb.c:2609 stlink_dump_speed_map(): 50 kHz
Debug: 158 7 stlink_usb.c:2609 stlink_dump_speed_map(): 25 kHz
Debug: 159 7 stlink_usb.c:2609 stlink_dump_speed_map(): 15 kHz
Debug: 160 7 stlink_usb.c:2609 stlink_dump_speed_map(): 5 kHz
Debug: 161 8 stlink_usb.c:1450 stlink_usb_init_mode(): MODE: 0x02
Debug: 162 9 stlink_usb.c:2990 stlink_usb_open(): Using TAR autoincrement: 4096
Debug: 163 9 core.c:640 adapter_system_reset(): SRST line released
Debug: 164 110 hla_interface.c:67 hl_interface_init_target(): hl_interface_init_target
Debug: 165 110 stlink_usb.c:1683 stlink_usb_idcode(): IDCODE: 0x2BA01477
Debug: 166 110 command.c:146 script_debug(): command - dap init
Debug: 168 110 arm_dap.c:106 dap_init_all(): Initializing all DAPs ...
Debug: 169 110 openocd.c:160 handle_init_command(): Examining targets...
Debug: 170 110 target.c:1794 target_call_event_callbacks(): target event 19 (examine-start) for core stm32f3x.cpu
Debug: 171 110 hla_target.c:602 adapter_read_memory(): adapter_read_memory 0xe000ed00 4 1
Debug: 172 111 target.c:2556 target_read_u32(): address: 0xe000ed00, value: 0x410fc241
Debug: 173 111 cortex_m.c:1998 cortex_m_examine(): Cortex-M4 r0p1 processor detected
Debug: 174 111 cortex_m.c:2010 cortex_m_examine(): cpuid: 0x410fc241
Debug: 175 111 hla_target.c:602 adapter_read_memory(): adapter_read_memory 0xe000ef40 4 1
Debug: 176 111 target.c:2556 target_read_u32(): address: 0xe000ef40, value: 0x10110021
Debug: 177 111 hla_target.c:602 adapter_read_memory(): adapter_read_memory 0xe000ef44 4 1
Debug: 178 112 target.c:2556 target_read_u32(): address: 0xe000ef44, value: 0x11000011
Debug: 179 112 cortex_m.c:2021 cortex_m_examine(): Cortex-M4 floating point feature FPv4_SP found
Debug: 180 112 hla_target.c:602 adapter_read_memory(): adapter_read_memory 0xe000edf0 4 1
Debug: 181 112 target.c:2556 target_read_u32(): address: 0xe000edf0, value: 0x00030003
Debug: 182 112 target.c:2644 target_write_u32(): address: 0xe000edfc, value: 0x01000000
Debug: 183 112 hla_target.c:617 adapter_write_memory(): adapter_write_memory 0xe000edfc 4 1
Debug: 184 113 hla_target.c:602 adapter_read_memory(): adapter_read_memory 0xe0002000 4 1
Debug: 185 113 target.c:2556 target_read_u32(): address: 0xe0002000, value: 0x00000260
Debug: 186 113 target.c:2644 target_write_u32(): address: 0xe0002008, value: 0x00000000
Debug: 187 113 hla_target.c:617 adapter_write_memory(): adapter_write_memory 0xe0002008 4 1
Debug: 188 114 target.c:2644 target_write_u32(): address: 0xe000200c, value: 0x00000000
Debug: 189 114 hla_target.c:617 adapter_write_memory(): adapter_write_memory 0xe000200c 4 1
Debug: 190 114 target.c:2644 target_write_u32(): address: 0xe0002010, value: 0x00000000
Debug: 191 114 hla_target.c:617 adapter_write_memory(): adapter_write_memory 0xe0002010 4 1
Debug: 192 115 target.c:2644 target_write_u32(): address: 0xe0002014, value: 0x00000000
Debug: 193 115 hla_target.c:617 adapter_write_memory(): adapter_write_memory 0xe0002014 4 1
Debug: 194 115 target.c:2644 target_write_u32(): address: 0xe0002018, value: 0x00000000
Debug: 195 115 hla_target.c:617 adapter_write_memory(): adapter_write_memory 0xe0002018 4 1
Debug: 196 116 target.c:2644 target_write_u32(): address: 0xe000201c, value: 0x00000000
Debug: 197 116 hla_target.c:617 adapter_write_memory(): adapter_write_memory 0xe000201c 4 1
Debug: 198 116 target.c:2644 target_write_u32(): address: 0xe0002020, value: 0x00000000
Debug: 199 116 hla_target.c:617 adapter_write_memory(): adapter_write_memory 0xe0002020 4 1
Debug: 200 117 target.c:2644 target_write_u32(): address: 0xe0002024, value: 0x00000000
Debug: 201 117 hla_target.c:617 adapter_write_memory(): adapter_write_memory 0xe0002024 4 1
Debug: 202 117 cortex_m.c:2111 cortex_m_examine(): FPB fpcr 0x260, numcode 6, numlit 2
Debug: 203 117 hla_target.c:602 adapter_read_memory(): adapter_read_memory 0xe0001000 4 1
Debug: 204 118 target.c:2556 target_read_u32(): address: 0xe0001000, value: 0x40000000
Debug: 205 118 cortex_m.c:1828 cortex_m_dwt_setup(): DWT_CTRL: 0x40000000
Debug: 206 118 hla_target.c:602 adapter_read_memory(): adapter_read_memory 0xe0001fbc 4 1
Debug: 207 118 target.c:2556 target_read_u32(): address: 0xe0001fbc, value: 0x00000000
Debug: 208 118 cortex_m.c:1835 cortex_m_dwt_setup(): DWT_DEVARCH: 0x0
Debug: 209 118 target.c:2644 target_write_u32(): address: 0xe0001028, value: 0x00000000
Debug: 210 118 hla_target.c:617 adapter_write_memory(): adapter_write_memory 0xe0001028 4 1
Debug: 211 119 target.c:2644 target_write_u32(): address: 0xe0001038, value: 0x00000000
Debug: 212 119 hla_target.c:617 adapter_write_memory(): adapter_write_memory 0xe0001038 4 1
Debug: 213 119 target.c:2644 target_write_u32(): address: 0xe0001048, value: 0x00000000
Debug: 214 119 hla_target.c:617 adapter_write_memory(): adapter_write_memory 0xe0001048 4 1
Debug: 215 119 target.c:2644 target_write_u32(): address: 0xe0001058, value: 0x00000000
Debug: 216 119 hla_target.c:617 adapter_write_memory(): adapter_write_memory 0xe0001058 4 1
Debug: 217 120 cortex_m.c:1882 cortex_m_dwt_setup(): DWT dwtcr 0x40000000, comp 4, watch/trigger
Info : 218 120 cortex_m.c:2121 cortex_m_examine(): stm32f3x.cpu: hardware has 6 breakpoints, 4 watchpoints
Debug: 219 120 target.c:1794 target_call_event_callbacks(): target event 21 (examine-end) for core stm32f3x.cpu
Debug: 220 120 target.c:4742 target_handle_event(): target(0): stm32f3x.cpu (hla_target) event: 21 (examine-end) action:  stm32f3x_default_examine_end 
Debug: 221 120 hla_target.c:602 adapter_read_memory(): adapter_read_memory 0xe0042004 4 1
Debug: 222 120 command.c:146 script_debug(): command - mww 0xe0042004 7
Debug: 223 121 hla_target.c:602 adapter_read_memory(): adapter_read_memory 0xe000edf8 4 1
Debug: 224 121 target.c:2556 target_read_u32(): address: 0xe000edf8, value: 0x00000000
Debug: 225 122 armv7m.c:341 armv7m_read_core_reg(): read r0 value 0x19224eb3
Debug: 226 122 armv7m.c:341 armv7m_read_core_reg(): read r1 value 0x00000000
Debug: 227 123 armv7m.c:341 armv7m_read_core_reg(): read r2 value 0x200005a0
Debug: 228 123 armv7m.c:341 armv7m_read_core_reg(): read r3 value 0x00000868
Debug: 229 124 armv7m.c:341 armv7m_read_core_reg(): read r4 value 0x00000868
Debug: 230 124 armv7m.c:341 armv7m_read_core_reg(): read r5 value 0x00000008
Debug: 231 125 armv7m.c:341 armv7m_read_core_reg(): read r6 value 0x04c11db7
Debug: 232 125 armv7m.c:341 armv7m_read_core_reg(): read r7 value 0x00000000
Debug: 233 126 armv7m.c:341 armv7m_read_core_reg(): read r8 value 0x00000000
Debug: 234 126 armv7m.c:341 armv7m_read_core_reg(): read r9 value 0x00000000
Debug: 235 127 armv7m.c:341 armv7m_read_core_reg(): read r10 value 0x00000000
Debug: 236 127 armv7m.c:341 armv7m_read_core_reg(): read r11 value 0x00000000
Debug: 237 128 armv7m.c:341 armv7m_read_core_reg(): read r12 value 0x00000000
Debug: 238 128 armv7m.c:341 armv7m_read_core_reg(): read sp value 0x20003000
Debug: 239 129 armv7m.c:341 armv7m_read_core_reg(): read lr value 0xffffffff
Debug: 240 129 armv7m.c:341 armv7m_read_core_reg(): read pc value 0x2000002e
Debug: 241 130 armv7m.c:341 armv7m_read_core_reg(): read xPSR value 0x61000000
Debug: 242 130 armv7m.c:341 armv7m_read_core_reg(): read msp value 0x20003000
Debug: 243 131 armv7m.c:341 armv7m_read_core_reg(): read psp value 0x00000000
Debug: 244 131 armv7m.c:341 armv7m_read_core_reg(): read pmsk_bpri_fltmsk_ctrl value 0x00000000
Debug: 245 132 armv7m.c:339 armv7m_read_core_reg(): read d0 value 0x0000000000000000
Debug: 246 133 armv7m.c:339 armv7m_read_core_reg(): read d1 value 0x0000000000000000
Debug: 247 134 armv7m.c:339 armv7m_read_core_reg(): read d2 value 0x0000000000000000
Debug: 248 135 armv7m.c:339 armv7m_read_core_reg(): read d3 value 0x0000000000000000
Debug: 249 136 armv7m.c:339 armv7m_read_core_reg(): read d4 value 0x0000000000000000
Debug: 250 137 armv7m.c:339 armv7m_read_core_reg(): read d5 value 0x0000000000000000
Debug: 251 138 armv7m.c:339 armv7m_read_core_reg(): read d6 value 0x0000000000000000
Debug: 252 139 armv7m.c:339 armv7m_read_core_reg(): read d7 value 0x0000000000000000
Debug: 253 140 armv7m.c:339 armv7m_read_core_reg(): read d8 value 0x0000000000000000
Debug: 254 141 armv7m.c:339 armv7m_read_core_reg(): read d9 value 0x0000000000000000
Debug: 255 142 armv7m.c:339 armv7m_read_core_reg(): read d10 value 0x0000000000000000
Debug: 256 143 armv7m.c:339 armv7m_read_core_reg(): read d11 value 0x0000000000000000
Debug: 257 144 armv7m.c:339 armv7m_read_core_reg(): read d12 value 0x0000000000000000
Debug: 258 145 armv7m.c:339 armv7m_read_core_reg(): read d13 value 0x0000000000000000
Debug: 259 146 armv7m.c:339 armv7m_read_core_reg(): read d14 value 0x0000000000000000
Debug: 260 147 armv7m.c:339 armv7m_read_core_reg(): read d15 value 0x0000000000000000
Debug: 261 147 armv7m.c:341 armv7m_read_core_reg(): read fpscr value 0x00000000
Debug: 262 148 hla_target.c:286 adapter_debug_entry(): entered debug state in core mode: Thread at PC 0x2000002e, target->state: halted
Debug: 263 148 target.c:1794 target_call_event_callbacks(): target event 0 (gdb-halt) for core stm32f3x.cpu
Debug: 264 148 target.c:1794 target_call_event_callbacks(): target event 1 (halted) for core stm32f3x.cpu
Debug: 265 148 hla_target.c:331 adapter_poll(): halted: PC: 0x2000002e
Debug: 267 148 hla_target.c:617 adapter_write_memory(): adapter_write_memory 0xe0042004 4 1
Debug: 268 149 hla_target.c:602 adapter_read_memory(): adapter_read_memory 0xe0042008 4 1
Debug: 269 149 command.c:146 script_debug(): command - mww 0xe0042008 6144
Debug: 271 149 hla_target.c:617 adapter_write_memory(): adapter_write_memory 0xe0042008 4 1
Debug: 272 150 command.c:146 script_debug(): command - flash init
Debug: 274 150 tcl.c:1385 handle_flash_init_command(): Initializing flash devices...
Debug: 275 150 command.c:146 script_debug(): command - nand init
Debug: 277 151 tcl.c:498 handle_nand_init_command(): Initializing NAND devices...
Debug: 278 151 command.c:146 script_debug(): command - pld init
Debug: 280 151 pld.c:206 handle_pld_init_command(): Initializing PLDs...
Info : 281 151 gdb_server.c:3503 gdb_target_start(): starting gdb server for stm32f3x.cpu on 3333
Info : 282 151 server.c:311 add_service(): Listening on port 3333 for gdb connections
Debug: 283 151 command.c:146 script_debug(): command - init
Debug: 285 152 command.c:146 script_debug(): command - reset init
Debug: 287 152 target.c:1813 target_call_reset_callbacks(): target reset 3 (init)
Debug: 288 152 command.c:146 script_debug(): command - target names
Debug: 289 152 command.c:146 script_debug(): command - stm32f3x.cpu invoke-event reset-start
Debug: 290 152 target.c:4742 target_handle_event(): target(0): stm32f3x.cpu (hla_target) event: 9 (reset-start) action:  stm32f3x_default_reset_start 
Debug: 291 152 command.c:146 script_debug(): command - adapter speed 1000
Debug: 293 152 core.c:1822 jtag_config_khz(): handle jtag khz
Debug: 294 152 core.c:1785 adapter_khz_to_speed(): convert khz to interface specific speed value
Debug: 295 152 core.c:1789 adapter_khz_to_speed(): have interface set up
Info : 296 152 stlink_usb.c:2549 stlink_match_speed_map(): Unable to match requested speed 1000 kHz, using 950 kHz
Debug: 297 153 core.c:1785 adapter_khz_to_speed(): convert khz to interface specific speed value
Debug: 298 153 core.c:1789 adapter_khz_to_speed(): have interface set up
Info : 299 153 stlink_usb.c:2549 stlink_match_speed_map(): Unable to match requested speed 1000 kHz, using 950 kHz
Debug: 300 153 command.c:146 script_debug(): command - transport select
Debug: 301 153 command.c:146 script_debug(): command - transport select
Debug: 302 153 command.c:146 script_debug(): command - stm32f3x.cpu invoke-event examine-start
Debug: 303 153 command.c:146 script_debug(): command - stm32f3x.cpu arp_examine allow-defer
Debug: 304 153 command.c:146 script_debug(): command - stm32f3x.cpu invoke-event examine-end
Debug: 305 153 target.c:4742 target_handle_event(): target(0): stm32f3x.cpu (hla_target) event: 21 (examine-end) action:  stm32f3x_default_examine_end 
Debug: 306 153 hla_target.c:602 adapter_read_memory(): adapter_read_memory 0xe0042004 4 1
Debug: 307 153 command.c:146 script_debug(): command - mww 0xe0042004 7
Debug: 309 153 hla_target.c:617 adapter_write_memory(): adapter_write_memory 0xe0042004 4 1
Debug: 310 154 hla_target.c:602 adapter_read_memory(): adapter_read_memory 0xe0042008 4 1
Debug: 311 154 command.c:146 script_debug(): command - mww 0xe0042008 6144
Debug: 313 154 hla_target.c:617 adapter_write_memory(): adapter_write_memory 0xe0042008 4 1
Debug: 314 155 command.c:146 script_debug(): command - stm32f3x.cpu invoke-event reset-assert-pre
Debug: 315 155 command.c:146 script_debug(): command - transport select
Debug: 316 155 command.c:146 script_debug(): command - stm32f3x.cpu arp_reset assert 1
Debug: 317 155 target.c:2141 target_free_all_working_areas_restore(): freeing all working areas
Debug: 318 155 hla_target.c:344 hl_assert_reset(): hl_assert_reset
Debug: 319 157 command.c:146 script_debug(): command - stm32f3x.cpu invoke-event reset-assert-post
Debug: 320 157 command.c:146 script_debug(): command - stm32f3x.cpu invoke-event reset-deassert-pre
Debug: 321 157 command.c:146 script_debug(): command - transport select
Debug: 322 157 command.c:146 script_debug(): command - stm32f3x.cpu arp_reset deassert 1
Debug: 323 157 target.c:2141 target_free_all_working_areas_restore(): freeing all working areas
Debug: 324 157 hla_target.c:403 hl_deassert_reset(): hl_deassert_reset
Debug: 325 157 command.c:146 script_debug(): command - stm32f3x.cpu invoke-event reset-deassert-post
Debug: 326 157 command.c:146 script_debug(): command - transport select
Debug: 327 157 command.c:146 script_debug(): command - stm32f3x.cpu was_examined
Debug: 328 157 command.c:146 script_debug(): command - stm32f3x.cpu arp_waitstate halted 1000
Debug: 329 157 target.c:3210 target_wait_state(): waiting for target halted...
Debug: 330 159 hla_target.c:602 adapter_read_memory(): adapter_read_memory 0xe000edf8 4 1
Debug: 331 159 target.c:2556 target_read_u32(): address: 0xe000edf8, value: 0x00000000
Debug: 332 160 armv7m.c:341 armv7m_read_core_reg(): read r0 value 0x00000000
Debug: 333 160 armv7m.c:341 armv7m_read_core_reg(): read r1 value 0x00000000
Debug: 334 161 armv7m.c:341 armv7m_read_core_reg(): read r2 value 0x00000000
Debug: 335 161 armv7m.c:341 armv7m_read_core_reg(): read r3 value 0x00000000
Debug: 336 161 armv7m.c:341 armv7m_read_core_reg(): read r4 value 0x00000000
Debug: 337 162 armv7m.c:341 armv7m_read_core_reg(): read r5 value 0x00000000
Debug: 338 162 armv7m.c:341 armv7m_read_core_reg(): read r6 value 0x00000000
Debug: 339 163 armv7m.c:341 armv7m_read_core_reg(): read r7 value 0x00000000
Debug: 340 163 armv7m.c:341 armv7m_read_core_reg(): read r8 value 0x00000000
Debug: 341 164 armv7m.c:341 armv7m_read_core_reg(): read r9 value 0x00000000
Debug: 342 164 armv7m.c:341 armv7m_read_core_reg(): read r10 value 0x00000000
Debug: 343 165 armv7m.c:341 armv7m_read_core_reg(): read r11 value 0x00000000
Debug: 344 165 armv7m.c:341 armv7m_read_core_reg(): read r12 value 0x00000000
Debug: 345 166 armv7m.c:341 armv7m_read_core_reg(): read sp value 0x20003000
Debug: 346 166 armv7m.c:341 armv7m_read_core_reg(): read lr value 0xffffffff
Debug: 347 167 armv7m.c:341 armv7m_read_core_reg(): read pc value 0x08000740
Debug: 348 167 armv7m.c:341 armv7m_read_core_reg(): read xPSR value 0x01000000
Debug: 349 168 armv7m.c:341 armv7m_read_core_reg(): read msp value 0x20003000
Debug: 350 168 armv7m.c:341 armv7m_read_core_reg(): read psp value 0x00000000
Debug: 351 168 armv7m.c:341 armv7m_read_core_reg(): read pmsk_bpri_fltmsk_ctrl value 0x00000000
Debug: 352 169 armv7m.c:339 armv7m_read_core_reg(): read d0 value 0x0000000000000000
Debug: 353 170 armv7m.c:339 armv7m_read_core_reg(): read d1 value 0x0000000000000000
Debug: 354 171 armv7m.c:339 armv7m_read_core_reg(): read d2 value 0x0000000000000000
Debug: 355 172 armv7m.c:339 armv7m_read_core_reg(): read d3 value 0x0000000000000000
Debug: 356 173 armv7m.c:339 armv7m_read_core_reg(): read d4 value 0x0000000000000000
Debug: 357 174 armv7m.c:339 armv7m_read_core_reg(): read d5 value 0x0000000000000000
Debug: 358 175 armv7m.c:339 armv7m_read_core_reg(): read d6 value 0x0000000000000000
Debug: 359 176 armv7m.c:339 armv7m_read_core_reg(): read d7 value 0x0000000000000000
Debug: 360 177 armv7m.c:339 armv7m_read_core_reg(): read d8 value 0x0000000000000000
Debug: 361 177 armv7m.c:339 armv7m_read_core_reg(): read d9 value 0x0000000000000000
Debug: 362 178 armv7m.c:339 armv7m_read_core_reg(): read d10 value 0x0000000000000000
Debug: 363 179 armv7m.c:339 armv7m_read_core_reg(): read d11 value 0x0000000000000000
Debug: 364 180 armv7m.c:339 armv7m_read_core_reg(): read d12 value 0x0000000000000000
Debug: 365 181 armv7m.c:339 armv7m_read_core_reg(): read d13 value 0x0000000000000000
Debug: 366 182 armv7m.c:339 armv7m_read_core_reg(): read d14 value 0x0000000000000000
Debug: 367 183 armv7m.c:339 armv7m_read_core_reg(): read d15 value 0x0000000000000000
Debug: 368 183 armv7m.c:341 armv7m_read_core_reg(): read fpscr value 0x00000000
Debug: 369 184 hla_target.c:286 adapter_debug_entry(): entered debug state in core mode: Thread at PC 0x08000740, target->state: halted
Debug: 370 184 target.c:1794 target_call_event_callbacks(): target event 0 (gdb-halt) for core stm32f3x.cpu
Debug: 371 184 target.c:1794 target_call_event_callbacks(): target event 1 (halted) for core stm32f3x.cpu
User : 372 184 armv7m.c:696 armv7m_arch_state(): target halted due to debug-request, current mode: Thread 
xPSR: 0x01000000 pc: 0x08000740 msp: 0x20003000
Debug: 373 184 hla_target.c:331 adapter_poll(): halted: PC: 0x08000740
Debug: 374 184 command.c:146 script_debug(): command - stm32f3x.cpu curstate
Debug: 375 184 command.c:146 script_debug(): command - transport select
Debug: 376 184 command.c:146 script_debug(): command - stm32f3x.cpu was_examined
Debug: 377 184 command.c:146 script_debug(): command - stm32f3x.cpu arp_waitstate halted 5000
Debug: 378 184 command.c:146 script_debug(): command - stm32f3x.cpu invoke-event reset-init
Debug: 379 184 target.c:4742 target_handle_event(): target(0): stm32f3x.cpu (hla_target) event: 15 (reset-init) action:  stm32f3x_default_reset_init 
Debug: 380 184 command.c:146 script_debug(): command - mww 0x40021004 0x00380400
Debug: 382 184 hla_target.c:617 adapter_write_memory(): adapter_write_memory 0x40021004 4 1
Debug: 383 185 hla_target.c:602 adapter_read_memory(): adapter_read_memory 0x40021000 4 1
Debug: 384 185 command.c:146 script_debug(): command - mww 0x40021000 16801155
Debug: 386 185 hla_target.c:617 adapter_write_memory(): adapter_write_memory 0x40021000 4 1
Debug: 387 186 command.c:146 script_debug(): command - mww 0x40022000 0x00000012
Debug: 389 186 hla_target.c:617 adapter_write_memory(): adapter_write_memory 0x40022000 4 1
Debug: 390 186 command.c:146 script_debug(): command - sleep 10
Debug: 392 196 hla_target.c:602 adapter_read_memory(): adapter_read_memory 0x40021004 4 1
Debug: 393 196 command.c:146 script_debug(): command - mww 0x40021004 3671042
Debug: 395 196 hla_target.c:617 adapter_write_memory(): adapter_write_memory 0x40021004 4 1
Debug: 396 197 command.c:146 script_debug(): command - adapter speed 8000
Debug: 398 197 core.c:1822 jtag_config_khz(): handle jtag khz
Debug: 399 197 core.c:1785 adapter_khz_to_speed(): convert khz to interface specific speed value
Debug: 400 197 core.c:1789 adapter_khz_to_speed(): have interface set up
Info : 401 197 stlink_usb.c:2549 stlink_match_speed_map(): Unable to match requested speed 8000 kHz, using 4000 kHz
Debug: 402 197 core.c:1785 adapter_khz_to_speed(): convert khz to interface specific speed value
Debug: 403 197 core.c:1789 adapter_khz_to_speed(): have interface set up
Info : 404 197 stlink_usb.c:2549 stlink_match_speed_map(): Unable to match requested speed 8000 kHz, using 4000 kHz
Debug: 405 197 command.c:146 script_debug(): command - stm32f3x.cpu invoke-event reset-end
Debug: 406 197 command.c:146 script_debug(): command - echo ** Programming Started **
User : 408 197 command.c:769 jim_echo(): ** Programming Started **
Debug: 409 197 command.c:146 script_debug(): command - flash write_image erase main.elf
Debug: 411 198 configuration.c:97 find_file(): found main.elf
Debug: 412 198 image.c:69 autodetect_image_type(): ELF image detected.
Debug: 413 198 configuration.c:97 find_file(): found main.elf
Debug: 414 198 hla_target.c:602 adapter_read_memory(): adapter_read_memory 0xe000ed00 4 1
Debug: 415 198 target.c:2556 target_read_u32(): address: 0xe000ed00, value: 0x410fc241
Debug: 416 198 hla_target.c:602 adapter_read_memory(): adapter_read_memory 0xe0042000 4 1
Debug: 417 198 target.c:2556 target_read_u32(): address: 0xe0042000, value: 0x10016438
Info : 418 198 stm32f1x.c:712 stm32x_probe(): device id = 0x10016438
Debug: 419 198 hla_target.c:602 adapter_read_memory(): adapter_read_memory 0xe000ed00 4 1
Debug: 420 199 target.c:2556 target_read_u32(): address: 0xe000ed00, value: 0x410fc241
Debug: 421 199 hla_target.c:602 adapter_read_memory(): adapter_read_memory 0x1ffff7cc 2 1
Debug: 422 199 target.c:2580 target_read_u16(): address: 0x1ffff7cc, value: 0x0040
Info : 423 199 stm32f1x.c:862 stm32x_probe(): flash size = 64kbytes
Debug: 424 199 core.c:933 flash_write_unlock_verify(): image_read_section: section = 0, t_section_num = 0, section_offset = 0, buffer_idx = 0, size_read = 392
Debug: 425 199 image.c:493 image_elf_read_section(): load segment 0 at 0x0 (sz = 0x188)
Debug: 426 199 image.c:499 image_elf_read_section(): read elf: size = 0x188 at 0x10000
Debug: 427 199 core.c:933 flash_write_unlock_verify(): image_read_section: section = 1, t_section_num = 1, section_offset = 0, buffer_idx = 392, size_read = 17324
Debug: 428 199 image.c:493 image_elf_read_section(): load segment 1 at 0x0 (sz = 0x43ac)
Debug: 429 199 image.c:499 image_elf_read_section(): read elf: size = 0x43ac at 0x10188
Debug: 430 199 core.c:933 flash_write_unlock_verify(): image_read_section: section = 2, t_section_num = 2, section_offset = 0, buffer_idx = 17716, size_read = 1676
Debug: 431 199 image.c:493 image_elf_read_section(): load segment 2 at 0x0 (sz = 0x68c)
Debug: 432 199 image.c:499 image_elf_read_section(): read elf: size = 0x68c at 0x14534
Debug: 433 199 core.c:933 flash_write_unlock_verify(): image_read_section: section = 3, t_section_num = 3, section_offset = 0, buffer_idx = 19392, size_read = 1440
Debug: 434 199 image.c:493 image_elf_read_section(): load segment 3 at 0x0 (sz = 0x5a0)
Debug: 435 199 image.c:499 image_elf_read_section(): read elf: size = 0x5a0 at 0x20000
Debug: 436 199 target.c:2644 target_write_u32(): address: 0x40022004, value: 0x45670123
Debug: 437 199 hla_target.c:617 adapter_write_memory(): adapter_write_memory 0x40022004 4 1
Debug: 438 199 target.c:2644 target_write_u32(): address: 0x40022004, value: 0xcdef89ab
Debug: 439 199 hla_target.c:617 adapter_write_memory(): adapter_write_memory 0x40022004 4 1
Debug: 440 200 target.c:2644 target_write_u32(): address: 0x40022010, value: 0x00000002
Debug: 441 200 hla_target.c:617 adapter_write_memory(): adapter_write_memory 0x40022010 4 1
Debug: 442 200 target.c:2644 target_write_u32(): address: 0x40022014, value: 0x08000000
Debug: 443 200 hla_target.c:617 adapter_write_memory(): adapter_write_memory 0x40022014 4 1
Debug: 444 200 target.c:2644 target_write_u32(): address: 0x40022010, value: 0x00000042
Debug: 445 200 hla_target.c:617 adapter_write_memory(): adapter_write_memory 0x40022010 4 1
Debug: 446 201 hla_target.c:602 adapter_read_memory(): adapter_read_memory 0x4002200c 4 1
Debug: 447 201 target.c:2556 target_read_u32(): address: 0x4002200c, value: 0x00000003
Debug: 448 201 stm32f1x.c:180 stm32x_wait_status_busy(): status: 0x3
Debug: 449 202 hla_target.c:602 adapter_read_memory(): adapter_read_memory 0x4002200c 4 1
Debug: 450 202 target.c:2556 target_read_u32(): address: 0x4002200c, value: 0x00000003
Debug: 451 202 stm32f1x.c:180 stm32x_wait_status_busy(): status: 0x3
Debug: 452 203 hla_target.c:602 adapter_read_memory(): adapter_read_memory 0x4002200c 4 1
Debug: 453 204 target.c:2556 target_read_u32(): address: 0x4002200c, value: 0x00000003
Debug: 454 204 stm32f1x.c:180 stm32x_wait_status_busy(): status: 0x3
Debug: 455 205 hla_target.c:602 adapter_read_memory(): adapter_read_memory 0x4002200c 4 1
Debug: 456 205 target.c:2556 target_read_u32(): address: 0x4002200c, value: 0x00000003
Debug: 457 205 stm32f1x.c:180 stm32x_wait_status_busy(): status: 0x3
Debug: 458 206 hla_target.c:602 adapter_read_memory(): adapter_read_memory 0x4002200c 4 1
Debug: 459 207 target.c:2556 target_read_u32(): address: 0x4002200c, value: 0x00000003
Debug: 460 207 stm32f1x.c:180 stm32x_wait_status_busy(): status: 0x3
Debug: 461 208 hla_target.c:602 adapter_read_memory(): adapter_read_memory 0x4002200c 4 1
Debug: 462 208 target.c:2556 target_read_u32(): address: 0x4002200c, value: 0x00000003
Debug: 463 208 stm32f1x.c:180 stm32x_wait_status_busy(): status: 0x3
Debug: 464 209 hla_target.c:602 adapter_read_memory(): adapter_read_memory 0x4002200c 4 1
Debug: 465 210 target.c:2556 target_read_u32(): address: 0x4002200c, value: 0x00000003
Debug: 466 210 stm32f1x.c:180 stm32x_wait_status_busy(): status: 0x3
Debug: 467 211 hla_target.c:602 adapter_read_memory(): adapter_read_memory 0x4002200c 4 1
Debug: 468 211 target.c:2556 target_read_u32(): address: 0x4002200c, value: 0x00000003
Debug: 469 211 stm32f1x.c:180 stm32x_wait_status_busy(): status: 0x3
Debug: 470 212 hla_target.c:602 adapter_read_memory(): adapter_read_memory 0x4002200c 4 1
Debug: 471 213 target.c:2556 target_read_u32(): address: 0x4002200c, value: 0x00000003
Debug: 472 213 stm32f1x.c:180 stm32x_wait_status_busy(): status: 0x3
Debug: 473 214 hla_target.c:602 adapter_read_memory(): adapter_read_memory 0x4002200c 4 1
Debug: 474 214 target.c:2556 target_read_u32(): address: 0x4002200c, value: 0x00000003
Debug: 475 214 stm32f1x.c:180 stm32x_wait_status_busy(): status: 0x3
Debug: 476 215 hla_target.c:602 adapter_read_memory(): adapter_read_memory 0x4002200c 4 1
Debug: 477 215 target.c:2556 target_read_u32(): address: 0x4002200c, value: 0x00000003
Debug: 478 216 stm32f1x.c:180 stm32x_wait_status_busy(): status: 0x3
Debug: 479 217 hla_target.c:602 adapter_read_memory(): adapter_read_memory 0x4002200c 4 1
Debug: 480 217 target.c:2556 target_read_u32(): address: 0x4002200c, value: 0x00000003
Debug: 481 217 stm32f1x.c:180 stm32x_wait_status_busy(): status: 0x3
Debug: 482 218 hla_target.c:602 adapter_read_memory(): adapter_read_memory 0x4002200c 4 1
Debug: 483 218 target.c:2556 target_read_u32(): address: 0x4002200c, value: 0x00000003
Debug: 484 218 stm32f1x.c:180 stm32x_wait_status_busy(): status: 0x3
Debug: 485 220 hla_target.c:602 adapter_read_memory(): adapter_read_memory 0x4002200c 4 1
Debug: 486 220 target.c:2556 target_read_u32(): address: 0x4002200c, value: 0x00000003
Debug: 487 220 stm32f1x.c:180 stm32x_wait_status_busy(): status: 0x3
Debug: 488 221 hla_target.c:602 adapter_read_memory(): adapter_read_memory 0x4002200c 4 1
Debug: 489 221 target.c:2556 target_read_u32(): address: 0x4002200c, value: 0x00000003
Debug: 490 221 stm32f1x.c:180 stm32x_wait_status_busy(): status: 0x3
Debug: 491 222 hla_target.c:602 adapter_read_memory(): adapter_read_memory 0x4002200c 4 1
Debug: 492 223 target.c:2556 target_read_u32(): address: 0x4002200c, value: 0x00000020
Debug: 493 223 stm32f1x.c:180 stm32x_wait_status_busy(): status: 0x20
Debug: 494 223 target.c:2644 target_write_u32(): address: 0x40022010, value: 0x00000002
Debug: 495 223 hla_target.c:617 adapter_write_memory(): adapter_write_memory 0x40022010 4 1
Debug: 496 223 target.c:2644 target_write_u32(): address: 0x40022014, value: 0x08000800
Debug: 497 223 hla_target.c:617 adapter_write_memory(): adapter_write_memory 0x40022014 4 1
Debug: 498 223 target.c:2644 target_write_u32(): address: 0x40022010, value: 0x00000042
Debug: 499 223 hla_target.c:617 adapter_write_memory(): adapter_write_memory 0x40022010 4 1
Debug: 500 224 hla_target.c:602 adapter_read_memory(): adapter_read_memory 0x4002200c 4 1
Debug: 501 224 target.c:2556 target_read_u32(): address: 0x4002200c, value: 0x00000023
Debug: 502 224 stm32f1x.c:180 stm32x_wait_status_busy(): status: 0x23
Debug: 503 225 hla_target.c:602 adapter_read_memory(): adapter_read_memory 0x4002200c 4 1
Debug: 504 226 target.c:2556 target_read_u32(): address: 0x4002200c, value: 0x00000023
Debug: 505 226 stm32f1x.c:180 stm32x_wait_status_busy(): status: 0x23
Debug: 506 227 hla_target.c:602 adapter_read_memory(): adapter_read_memory 0x4002200c 4 1
Debug: 507 227 target.c:2556 target_read_u32(): address: 0x4002200c, value: 0x00000023
Debug: 508 227 stm32f1x.c:180 stm32x_wait_status_busy(): status: 0x23
Debug: 509 228 hla_target.c:602 adapter_read_memory(): adapter_read_memory 0x4002200c 4 1
Debug: 510 229 target.c:2556 target_read_u32(): address: 0x4002200c, value: 0x00000023
Debug: 511 229 stm32f1x.c:180 stm32x_wait_status_busy(): status: 0x23
Debug: 512 230 hla_target.c:602 adapter_read_memory(): adapter_read_memory 0x4002200c 4 1
Debug: 513 230 target.c:2556 target_read_u32(): address: 0x4002200c, value: 0x00000023
Debug: 514 230 stm32f1x.c:180 stm32x_wait_status_busy(): status: 0x23
Debug: 515 231 hla_target.c:602 adapter_read_memory(): adapter_read_memory 0x4002200c 4 1
Debug: 516 232 target.c:2556 target_read_u32(): address: 0x4002200c, value: 0x00000023
Debug: 517 232 stm32f1x.c:180 stm32x_wait_status_busy(): status: 0x23
Debug: 518 233 hla_target.c:602 adapter_read_memory(): adapter_read_memory 0x4002200c 4 1
Debug: 519 233 target.c:2556 target_read_u32(): address: 0x4002200c, value: 0x00000023
Debug: 520 233 stm32f1x.c:180 stm32x_wait_status_busy(): status: 0x23
Debug: 521 235 hla_target.c:602 adapter_read_memory(): adapter_read_memory 0x4002200c 4 1
Debug: 522 235 target.c:2556 target_read_u32(): address: 0x4002200c, value: 0x00000023
Debug: 523 235 stm32f1x.c:180 stm32x_wait_status_busy(): status: 0x23
Debug: 524 236 hla_target.c:602 adapter_read_memory(): adapter_read_memory 0x4002200c 4 1
Debug: 525 236 target.c:2556 target_read_u32(): address: 0x4002200c, value: 0x00000023
Debug: 526 236 stm32f1x.c:180 stm32x_wait_status_busy(): status: 0x23
Debug: 527 237 hla_target.c:602 adapter_read_memory(): adapter_read_memory 0x4002200c 4 1
Debug: 528 238 target.c:2556 target_read_u32(): address: 0x4002200c, value: 0x00000023
Debug: 529 238 stm32f1x.c:180 stm32x_wait_status_busy(): status: 0x23
Debug: 530 239 hla_target.c:602 adapter_read_memory(): adapter_read_memory 0x4002200c 4 1
Debug: 531 239 target.c:2556 target_read_u32(): address: 0x4002200c, value: 0x00000023
Debug: 532 239 stm32f1x.c:180 stm32x_wait_status_busy(): status: 0x23
Debug: 533 240 hla_target.c:602 adapter_read_memory(): adapter_read_memory 0x4002200c 4 1
Debug: 534 241 target.c:2556 target_read_u32(): address: 0x4002200c, value: 0x00000023
Debug: 535 241 stm32f1x.c:180 stm32x_wait_status_busy(): status: 0x23
Debug: 536 242 hla_target.c:602 adapter_read_memory(): adapter_read_memory 0x4002200c 4 1
Debug: 537 242 target.c:2556 target_read_u32(): address: 0x4002200c, value: 0x00000023
Debug: 538 242 stm32f1x.c:180 stm32x_wait_status_busy(): status: 0x23
Debug: 539 243 hla_target.c:602 adapter_read_memory(): adapter_read_memory 0x4002200c 4 1
Debug: 540 244 target.c:2556 target_read_u32(): address: 0x4002200c, value: 0x00000023
Debug: 541 244 stm32f1x.c:180 stm32x_wait_status_busy(): status: 0x23
Debug: 542 245 hla_target.c:602 adapter_read_memory(): adapter_read_memory 0x4002200c 4 1
Debug: 543 245 target.c:2556 target_read_u32(): address: 0x4002200c, value: 0x00000023
Debug: 544 245 stm32f1x.c:180 stm32x_wait_status_busy(): status: 0x23
Debug: 545 246 hla_target.c:602 adapter_read_memory(): adapter_read_memory 0x4002200c 4 1
Debug: 546 247 target.c:2556 target_read_u32(): address: 0x4002200c, value: 0x00000020
Debug: 547 247 stm32f1x.c:180 stm32x_wait_status_busy(): status: 0x20
Debug: 548 247 target.c:2644 target_write_u32(): address: 0x40022010, value: 0x00000002
Debug: 549 247 hla_target.c:617 adapter_write_memory(): adapter_write_memory 0x40022010 4 1
Debug: 550 247 target.c:2644 target_write_u32(): address: 0x40022014, value: 0x08001000
Debug: 551 247 hla_target.c:617 adapter_write_memory(): adapter_write_memory 0x40022014 4 1
Debug: 552 247 target.c:2644 target_write_u32(): address: 0x40022010, value: 0x00000042
Debug: 553 247 hla_target.c:617 adapter_write_memory(): adapter_write_memory 0x40022010 4 1
Debug: 554 248 hla_target.c:602 adapter_read_memory(): adapter_read_memory 0x4002200c 4 1
Debug: 555 248 target.c:2556 target_read_u32(): address: 0x4002200c, value: 0x00000023
Debug: 556 248 stm32f1x.c:180 stm32x_wait_status_busy(): status: 0x23
Debug: 557 249 hla_target.c:602 adapter_read_memory(): adapter_read_memory 0x4002200c 4 1
Debug: 558 250 target.c:2556 target_read_u32(): address: 0x4002200c, value: 0x00000023
Debug: 559 250 stm32f1x.c:180 stm32x_wait_status_busy(): status: 0x23
Debug: 560 251 hla_target.c:602 adapter_read_memory(): adapter_read_memory 0x4002200c 4 1
Debug: 561 251 target.c:2556 target_read_u32(): address: 0x4002200c, value: 0x00000023
Debug: 562 251 stm32f1x.c:180 stm32x_wait_status_busy(): status: 0x23
Debug: 563 252 hla_target.c:602 adapter_read_memory(): adapter_read_memory 0x4002200c 4 1
Debug: 564 252 target.c:2556 target_read_u32(): address: 0x4002200c, value: 0x00000023
Debug: 565 253 stm32f1x.c:180 stm32x_wait_status_busy(): status: 0x23
Debug: 566 254 hla_target.c:602 adapter_read_memory(): adapter_read_memory 0x4002200c 4 1
Debug: 567 254 target.c:2556 target_read_u32(): address: 0x4002200c, value: 0x00000023
Debug: 568 254 stm32f1x.c:180 stm32x_wait_status_busy(): status: 0x23
Debug: 569 255 hla_target.c:602 adapter_read_memory(): adapter_read_memory 0x4002200c 4 1
Debug: 570 256 target.c:2556 target_read_u32(): address: 0x4002200c, value: 0x00000023
Debug: 571 256 stm32f1x.c:180 stm32x_wait_status_busy(): status: 0x23
Debug: 572 257 hla_target.c:602 adapter_read_memory(): adapter_read_memory 0x4002200c 4 1
Debug: 573 257 target.c:2556 target_read_u32(): address: 0x4002200c, value: 0x00000023
Debug: 574 257 stm32f1x.c:180 stm32x_wait_status_busy(): status: 0x23
Debug: 575 258 hla_target.c:602 adapter_read_memory(): adapter_read_memory 0x4002200c 4 1
Debug: 576 259 target.c:2556 target_read_u32(): address: 0x4002200c, value: 0x00000023
Debug: 577 259 stm32f1x.c:180 stm32x_wait_status_busy(): status: 0x23
Debug: 578 260 hla_target.c:602 adapter_read_memory(): adapter_read_memory 0x4002200c 4 1
Debug: 579 260 target.c:2556 target_read_u32(): address: 0x4002200c, value: 0x00000023
Debug: 580 260 stm32f1x.c:180 stm32x_wait_status_busy(): status: 0x23
Debug: 581 261 hla_target.c:602 adapter_read_memory(): adapter_read_memory 0x4002200c 4 1
Debug: 582 262 target.c:2556 target_read_u32(): address: 0x4002200c, value: 0x00000023
Debug: 583 262 stm32f1x.c:180 stm32x_wait_status_busy(): status: 0x23
Debug: 584 263 hla_target.c:602 adapter_read_memory(): adapter_read_memory 0x4002200c 4 1
Debug: 585 263 target.c:2556 target_read_u32(): address: 0x4002200c, value: 0x00000023
Debug: 586 263 stm32f1x.c:180 stm32x_wait_status_busy(): status: 0x23
Debug: 587 264 hla_target.c:602 adapter_read_memory(): adapter_read_memory 0x4002200c 4 1
Debug: 588 264 target.c:2556 target_read_u32(): address: 0x4002200c, value: 0x00000023
Debug: 589 264 stm32f1x.c:180 stm32x_wait_status_busy(): status: 0x23
Debug: 590 266 hla_target.c:602 adapter_read_memory(): adapter_read_memory 0x4002200c 4 1
Debug: 591 266 target.c:2556 target_read_u32(): address: 0x4002200c, value: 0x00000023
Debug: 592 266 stm32f1x.c:180 stm32x_wait_status_busy(): status: 0x23
Debug: 593 267 hla_target.c:602 adapter_read_memory(): adapter_read_memory 0x4002200c 4 1
Debug: 594 268 target.c:2556 target_read_u32(): address: 0x4002200c, value: 0x00000023
Debug: 595 268 stm32f1x.c:180 stm32x_wait_status_busy(): status: 0x23
Debug: 596 269 hla_target.c:602 adapter_read_memory(): adapter_read_memory 0x4002200c 4 1
Debug: 597 269 target.c:2556 target_read_u32(): address: 0x4002200c, value: 0x00000023
Debug: 598 269 stm32f1x.c:180 stm32x_wait_status_busy(): status: 0x23
Debug: 599 270 hla_target.c:602 adapter_read_memory(): adapter_read_memory 0x4002200c 4 1
Debug: 600 271 target.c:2556 target_read_u32(): address: 0x4002200c, value: 0x00000020
Debug: 601 271 stm32f1x.c:180 stm32x_wait_status_busy(): status: 0x20
Debug: 602 271 target.c:2644 target_write_u32(): address: 0x40022010, value: 0x00000002
Debug: 603 271 hla_target.c:617 adapter_write_memory(): adapter_write_memory 0x40022010 4 1
Debug: 604 271 target.c:2644 target_write_u32(): address: 0x40022014, value: 0x08001800
Debug: 605 271 hla_target.c:617 adapter_write_memory(): adapter_write_memory 0x40022014 4 1
Debug: 606 271 target.c:2644 target_write_u32(): address: 0x40022010, value: 0x00000042
Debug: 607 271 hla_target.c:617 adapter_write_memory(): adapter_write_memory 0x40022010 4 1
Debug: 608 272 hla_target.c:602 adapter_read_memory(): adapter_read_memory 0x4002200c 4 1
Debug: 609 272 target.c:2556 target_read_u32(): address: 0x4002200c, value: 0x00000023
Debug: 610 272 stm32f1x.c:180 stm32x_wait_status_busy(): status: 0x23
Debug: 611 273 hla_target.c:602 adapter_read_memory(): adapter_read_memory 0x4002200c 4 1
Debug: 612 273 target.c:2556 target_read_u32(): address: 0x4002200c, value: 0x00000023
Debug: 613 273 stm32f1x.c:180 stm32x_wait_status_busy(): status: 0x23
Debug: 614 275 hla_target.c:602 adapter_read_memory(): adapter_read_memory 0x4002200c 4 1
Debug: 615 275 target.c:2556 target_read_u32(): address: 0x4002200c, value: 0x00000023
Debug: 616 275 stm32f1x.c:180 stm32x_wait_status_busy(): status: 0x23
Debug: 617 276 hla_target.c:602 adapter_read_memory(): adapter_read_memory 0x4002200c 4 1
Debug: 618 276 target.c:2556 target_read_u32(): address: 0x4002200c, value: 0x00000023
Debug: 619 276 stm32f1x.c:180 stm32x_wait_status_busy(): status: 0x23
Debug: 620 277 hla_target.c:602 adapter_read_memory(): adapter_read_memory 0x4002200c 4 1
Debug: 621 278 target.c:2556 target_read_u32(): address: 0x4002200c, value: 0x00000023
Debug: 622 278 stm32f1x.c:180 stm32x_wait_status_busy(): status: 0x23
